 ****** HSPICE -- A-2008.03 32-BIT (Feb 26 2008) winnt ******                   
  Copyright (C) 2008 Synopsys, Inc. All Rights Reserved.                        
  Unpublished-rights reserved under US copyright laws.
  This program is protected by law and is subject to the 
  terms and conditions of the license agreement found in:
    C:\synopsys\Hspice_A-2008.03\license.warn
  Use of this program is your acceptance to be bound by this 
  license agreement. HSPICE is the trademark of Synopsys, Inc.
  Input File: c:\users\seth\documents\github\mr325\hw5\spice_simulator\spice_sim
 Init: read install configuration file: C:\synopsys\Hspice_A-2008.03\meta.cfg
 Init: hspice initialization file: C:\synopsys\Hspice_A-2008.03\hspice.ini




 v1 1 0 ac 1
 r1 1 2 10k
 r2 2 3 100k
 c 2 3 10n
 e1 3 0 0 2 1e8
 .ac dec 10 1 1e4
 .plot ac vdb(3)
 .plot ac vp(3)
 .end
 
      
1****** HSPICE -- A-2008.03 32-BIT (Feb 26 2008) winnt ******                   
 ******  
 example ac analysis                                                            
  ******  operating point information      tnom=  25.000 temp=  25.000          
 ******  
 ***** operating point status is all       simulation time is     0.     
    node    =voltage      node    =voltage      node    =voltage

 +0:1       =   0.      0:2       =   0.      0:3       =   0.     


 ****  voltage sources

 subckt             
 element  0:v1      
  volts      0.     
  current    0.     
  power      0.     

     total voltage source power dissipation=    0.            watts



 **** resistors

 subckt                        
 element  0:r1       0:r2      
  r value   10.0000k  100.0000k
  v drop     0.         0.     
  current    0.         0.     
  power      0.         0.     


 **** voltage-controlled voltage sources


 subckt             
 element  0:e1      
  volts      0.     
  current    0.     



 ******  
 example ac analysis                                                            
  ******  ac analysis                      tnom=  25.000 temp=  25.000          
 ******  

a


      freq       vdb(3)
 (a       )     -20.0000      -10.0000        0.           10.0000      20.0000 
                      +             +             +             +             + 
    1.0000    20.000 -+------+------+------+------+------+------+------+------a-
    1.2589    20.000  +      +      +      +      +      +      +      +      a 
    1.5849    20.000  +      +      +      +      +      +      +      +      a 
    1.9953    19.999  +      +      +      +      +      +      +      +      a 
    2.5119    19.999  +      +      +      +      +      +      +      +      a 
    3.1623    19.998  +      +      +      +      +      +      +      +      a 
    3.9811    19.997  +      +      +      +      +      +      +      +      a 
    5.0119    19.996  +      +      +      +      +      +      +      +      a 
    6.3096    19.993  +      +      +      +      +      +      +      +      a 
    7.9433    19.989  +      +      +      +      +      +      +      +      a 
   10.0000    19.983 -+------+------+------+------+------+------+------+------a-
   12.5893    19.973  +      +      +      +      +      +      +      +      a 
   15.8489    19.957  +      +      +      +      +      +      +      +      a 
   19.9526    19.932  +      +      +      +      +      +      +      +      a 
   25.1189    19.893  +      +      +      +      +      +      +      +      a 
   31.6228    19.832  +      +      +      +      +      +      +      +      a 
   39.8107    19.736  +      +      +      +      +      +      +      +      a 
   50.1187    19.589  +      +      +      +      +      +      +      +     a+ 
   63.0957    19.366  +      +      +      +      +      +      +      +     a+ 
   79.4328    19.034  +      +      +      +      +      +      +      +     a+ 
  100.0000    18.555 -+------+------+------+------+------+------+------+----a-+-
  125.8925    17.890  +      +      +      +      +      +      +      +   a  + 
  158.4893    17.008  +      +      +      +      +      +      +      +  a   + 
  199.5262    15.898  +      +      +      +      +      +      +      +a     + 
  251.1886    14.571  +      +      +      +      +      +      +     a+      + 
  316.2278    13.056  +      +      +      +      +      +      +   a  +      + 
  398.1072    11.392  +      +      +      +      +      +      + a    +      + 
  501.1872     9.619  +      +      +      +      +      +     a+      +      + 
  630.9573     7.769  +      +      +      +      +      +   a  +      +      + 
  794.3282     5.865  +      +      +      +      +      +a     +      +      + 
    1.0000k    3.928 -+------+------+------+------+----a-+------+------+------+-
    1.2589k    1.968  +      +      +      +      +  a   +      +      +      + 
    1.5849k   -7.173m +      +      +      +      a      +      +      +      + 
    1.9953k   -1.991  +      +      +      +   a  +      +      +      +      + 
    2.5119k   -3.981  +      +      +      +a     +      +      +      +      + 
    3.1623k   -5.975  +      +      +     a+      +      +      +      +      + 
    3.9811k   -7.971  +      +      +  a   +      +      +      +      +      + 
    5.0119k   -9.968  +      +      a      +      +      +      +      +      + 
    6.3096k  -11.966  +      +   a  +      +      +      +      +      +      + 
    7.9433k  -13.965  +      +a     +      +      +      +      +      +      + 
   10.0000k  -15.965 -+-----a+------+------+------+------+------+------+------+-
                      +             +             +             +             + 

b


a


      freq       vp(3)
 (a       )      50.0000      100.0000      150.0000      200.0000     250.0000 
                      +             +             +             +             + 
    1.0000   179.640 -+------+------+------+------+------+a-----+------+------+-
    1.2589   179.547  +      +      +      +      +      +a     +      +      + 
    1.5849   179.429  +      +      +      +      +      +a     +      +      + 
    1.9953   179.282  +      +      +      +      +      +a     +      +      + 
    2.5119   179.096  +      +      +      +      +      +a     +      +      + 
    3.1623   178.862  +      +      +      +      +      +a     +      +      + 
    3.9811   178.567  +      +      +      +      +      +a     +      +      + 
    5.0119   178.196  +      +      +      +      +      +a     +      +      + 
    6.3096   177.730  +      +      +      +      +      +a     +      +      + 
    7.9433   177.143  +      +      +      +      +      +a     +      +      + 
   10.0000   176.405 -+------+------+------+------+------a------+------+------+-
   12.5893   175.477  +      +      +      +      +      a      +      +      + 
   15.8489   174.313  +      +      +      +      +      a      +      +      + 
   19.9526   172.854  +      +      +      +      +     a+      +      +      + 
   25.1189   171.031  +      +      +      +      +     a+      +      +      + 
   31.6228   168.762  +      +      +      +      +    a +      +      +      + 
   39.8107   165.956  +      +      +      +      +   a  +      +      +      + 
   50.1187   162.521  +      +      +      +      +   a  +      +      +      + 
   63.0957   158.375  +      +      +      +      + a    +      +      +      + 
   79.4328   153.477  +      +      +      +      +a     +      +      +      + 
  100.0000   147.858 -+------+------+------+-----a+------+------+------+------+-
  125.8925   141.656  +      +      +      +    a +      +      +      +      + 
  158.4893   135.120  +      +      +      +  a   +      +      +      +      + 
  199.5262   128.578  +      +      +      +a     +      +      +      +      + 
  251.1886   122.359  +      +      +     a+      +      +      +      +      + 
  316.2278   116.716  +      +      +    a +      +      +      +      +      + 
  398.1072   111.791  +      +      +  a   +      +      +      +      +      + 
  501.1872   107.618  +      +      + a    +      +      +      +      +      + 
  630.9573   104.157  +      +      +a     +      +      +      +      +      + 
  794.3282   101.330  +      +      a      +      +      +      +      +      + 
    1.0000k   99.043 -+------+------a------+------+------+------+------+------+-
    1.2589k   97.205  +      +     a+      +      +      +      +      +      + 
    1.5849k   95.734  +      +     a+      +      +      +      +      +      + 
    1.9953k   94.561  +      +    a +      +      +      +      +      +      + 
    2.5119k   93.625  +      +    a +      +      +      +      +      +      + 
    3.1623k   92.881  +      +    a +      +      +      +      +      +      + 
    3.9811k   92.289  +      +    a +      +      +      +      +      +      + 
    5.0119k   91.819  +      +    a +      +      +      +      +      +      + 
    6.3096k   91.445  +      +    a +      +      +      +      +      +      + 
    7.9433k   91.148  +      +    a +      +      +      +      +      +      + 
   10.0000k   90.912 -+------+---a--+------+------+------+------+------+------+-
                      +             +             +             +             + 

b


          ***** job concluded
1****** HSPICE -- A-2008.03 32-BIT (Feb 26 2008) winnt ******                   
 ******  
 example ac analysis                                                            
  ******  job statistics summary           tnom=  25.000 temp=  25.000          
 ******  

           total memory used         25 kbytes

  # nodes =       4 # elements=       5
  # diodes=       0 # bjts    =       0 # jfets   =       0 # mosfets =       0
  # va device =       0

    analysis           time    # points   tot. iter  conv.iter

    op point           0.01           1           3
    ac analysis        0.02          41          41
    readin             0.00
    errchk             0.00
    setup              0.00
    output             0.00
           total cpu time          0.04 seconds
           total elapsed time         1 seconds
               job started at  10:28:33 04/14/2016
               job ended   at  10:28:33 04/14/2016


 Init: hspice initialization file: C:\synopsys\Hspice_A-2008.03\hspice.ini
